time	V(n001)	V(n002)
0.000000000000000e+00	0.000000e+00	0.000000e+00
2.267600135441583e-10	1.570815e-05	7.578324e-11
4.535200270883166e-10	3.141629e-05	2.273493e-10
9.070400541766332e-10	6.283259e-05	6.820464e-10
1.814080108353266e-09	1.256652e-04	2.500822e-09
3.628160216706533e-09	2.513303e-04	9.775808e-09
7.256320433413066e-09	5.026607e-04	3.887482e-08
1.451264086682613e-08	1.005321e-03	1.552634e-07
2.902528173365226e-08	2.010643e-03	6.207579e-07
5.805056346730453e-08	4.021285e-03	2.482257e-06
1.161011269346091e-07	8.042567e-03	9.924421e-06
2.322022538692181e-07	1.608511e-02	3.966245e-05
4.644045077384362e-07	3.217006e-02	1.583699e-04
9.288090154768724e-07	6.433879e-02	6.312480e-04
1.857618030953745e-06	1.286669e-01	2.507235e-03
3.715236061907490e-06	2.572486e-01	9.888376e-03
7.430472123814980e-06	5.138159e-01	3.845189e-02
8.430472123814980e-06	5.826697e-01	4.918385e-02
1.426696270130160e-05	9.818798e-01	1.348935e-01
1.526696270130160e-05	1.049707e+00	1.534377e-01
2.359502897297115e-05	1.605523e+00	3.445435e-01
2.459502897297115e-05	1.670970e+00	3.717754e-01
3.358820970526311e-05	2.243657e+00	6.483743e-01
3.458820970526311e-05	2.305346e+00	6.825246e-01
3.849045661687755e-05	2.541730e+00	8.202578e-01
3.949045661687754e-05	2.601138e+00	8.565554e-01
4.181511438534846e-05	2.737293e+00	9.412807e-01
4.406101980077214e-05	2.866140e+00	1.021545e+00
4.641187598777739e-05	2.998034e+00	1.098640e+00
4.895007584415503e-05	3.136865e+00	1.165267e+00
5.151066719090452e-05	3.272990e+00	1.208058e+00
5.429160812333326e-05	3.416157e+00	1.231000e+00
5.713578120084434e-05	3.557334e+00	1.242232e+00
6.114869062617894e-05	3.747081e+00	1.251351e+00
6.572685546891481e-05	3.949383e+00	1.258608e+00
7.302403602061428e-05	4.238689e+00	1.268562e+00
8.385024251937056e-05	4.587397e+00	1.279491e+00
8.485024251937056e-05	4.614511e+00	1.280269e+00
1.008502425193706e-04	4.924869e+00	1.289081e+00
1.018502425193705e-04	4.936359e+00	1.289403e+00
1.178502425193705e-04	4.990408e+00	1.291225e+00
1.188502425193705e-04	4.985641e+00	1.291135e+00
1.348502425193706e-04	4.780396e+00	1.286362e+00
1.358502425193705e-04	4.759634e+00	1.285854e+00
1.518502425193706e-04	4.306430e+00	1.273823e+00
1.528502425193706e-04	4.270819e+00	1.272818e+00
1.688502425193706e-04	3.594678e+00	1.251372e+00
1.698502425193706e-04	3.546185e+00	1.249670e+00
1.858502425193706e-04	2.684443e+00	1.213347e+00
1.868502425193706e-04	2.625745e+00	1.210434e+00
2.028502425193706e-04	1.625982e+00	1.142162e+00
2.038502425193706e-04	1.560321e+00	1.136520e+00
2.058502425193706e-04	1.428114e+00	1.123709e+00
2.098502425193706e-04	1.160512e+00	1.094913e+00
2.108502425193706e-04	1.093022e+00	1.086693e+00
2.149383902792097e-04	8.150719e-01	1.047877e+00
2.159383902792097e-04	7.466504e-01	1.037032e+00
2.231146857988881e-04	2.522293e-01	9.387723e-01
2.241146857988881e-04	1.830234e-01	9.220921e-01
2.286143383212401e-04	-1.286220e-01	8.361787e-01
2.296143383212401e-04	-1.978566e-01	8.146620e-01
2.339707437342962e-04	-4.988544e-01	7.104731e-01
2.349707437342962e-04	-5.677308e-01	6.841735e-01
2.390755777497079e-04	-8.491722e-01	5.673871e-01
2.400755777497079e-04	-9.173543e-01	5.368251e-01
2.447687003784041e-04	-1.234775e+00	3.833851e-01
2.457687003784041e-04	-1.301781e+00	3.486119e-01
2.526142827083309e-04	-1.753098e+00	9.391481e-02
2.536142827083309e-04	-1.817802e+00	5.435086e-02
2.663054473681845e-04	-2.604546e+00	-4.846087e-01
2.673054473681846e-04	-2.663426e+00	-5.298570e-01
2.821565994340151e-04	-3.471779e+00	-1.222311e+00
2.831565994340151e-04	-3.521295e+00	-1.270188e+00
2.991565994340151e-04	-4.215574e+00	-2.026019e+00
3.001565994340152e-04	-4.252418e+00	-2.072501e+00
3.161565994340152e-04	-4.726601e+00	-2.775611e+00
3.171565994340152e-04	-4.748739e+00	-2.816917e+00
3.331565994340152e-04	-4.976643e+00	-3.412035e+00
3.341565994340152e-04	-4.982853e+00	-3.445039e+00
3.501565994340152e-04	-4.951894e+00	-3.887888e+00
3.728325994340153e-04	-4.495709e+00	-4.212800e+00
3.738325994340153e-04	-4.464961e+00	-4.218432e+00
3.898325994340153e-04	-3.860946e+00	-4.202292e+00
3.908325994340153e-04	-3.816562e+00	-4.194639e+00
4.068325994340153e-04	-3.012996e+00	-3.967775e+00
4.078325994340153e-04	-2.957427e+00	-3.947090e+00
4.238325994340154e-04	-1.998681e+00	-3.519743e+00
4.248325994340154e-04	-1.934994e+00	-3.487052e+00
4.268325994340154e-04	-1.806519e+00	-3.418460e+00
4.308325994340154e-04	-1.545507e+00	-3.276223e+00
4.318325994340154e-04	-1.479481e+00	-3.239093e+00
4.388325994340154e-04	-1.010064e+00	-2.962660e+00
4.398325994340154e-04	-9.421250e-01	-2.920839e+00
4.528325994340154e-04	-4.725257e-02	-2.331322e+00
4.538325994340154e-04	2.201878e-02	-2.282509e+00
4.558325994340154e-04	1.605355e-01	-2.182796e+00
4.598325994340154e-04	4.370929e-01	-1.980221e+00
4.608325994340154e-04	5.060557e-01	-1.928606e+00
4.678325994340154e-04	9.853367e-01	-1.557922e+00
4.688325994340155e-04	1.053154e+00	-1.503667e+00
4.818325994340155e-04	1.911701e+00	-7.780962e-01
4.828325994340155e-04	1.975525e+00	-7.207991e-01
4.988325994340155e-04	2.937042e+00	2.034082e-01
4.998325994340155e-04	2.992820e+00	2.615422e-01
5.053273224768370e-04	3.288772e+00	5.794631e-01
5.063273224768370e-04	3.340632e+00	6.369979e-01
5.093792659611967e-04	3.494902e+00	8.111734e-01
5.112442176672404e-04	3.586114e+00	9.157678e-01
5.129346806032046e-04	3.666725e+00	1.007419e+00
5.145706572339142e-04	3.742823e+00	1.089590e+00
5.162372960351684e-04	3.818370e+00	1.160321e+00
5.183979698492778e-04	3.913275e+00	1.221817e+00
5.201364626554658e-04	3.987094e+00	1.246748e+00
5.220913081882236e-04	4.067336e+00	1.259689e+00
5.248466044279360e-04	4.175355e+00	1.267114e+00
5.280498679222733e-04	4.293279e+00	1.270707e+00
5.318001817985958e-04	4.420582e+00	1.274384e+00
5.371546908891871e-04	4.581583e+00	1.279235e+00
5.478637090703696e-04	4.827231e+00	1.286350e+00
5.692817454327346e-04	4.997263e+00	1.291698e+00
5.919577454327346e-04	4.701558e+00	1.285154e+00
5.929577454327346e-04	4.677533e+00	1.284335e+00
6.089577454327346e-04	4.174688e+00	1.269514e+00
6.099577454327346e-04	4.136165e+00	1.268621e+00
6.228057163016951e-04	3.573390e+00	1.250876e+00
6.238057163016951e-04	3.524596e+00	1.249051e+00
6.357430608393503e-04	2.892646e+00	1.223061e+00
6.367430608393503e-04	2.835867e+00	1.220513e+00
6.527003480285810e-04	1.863843e+00	1.162145e+00
6.537003480285810e-04	1.799387e+00	1.157324e+00
6.557003480285811e-04	1.669451e+00	1.146505e+00
6.597003480285810e-04	1.405835e+00	1.122365e+00
6.607003480285811e-04	1.339224e+00	1.115525e+00
6.655687376665914e-04	1.011504e+00	1.076452e+00
6.665687376665914e-04	9.435693e-01	1.067159e+00
6.753055169426120e-04	3.437749e-01	9.594669e-01
6.763055169426121e-04	2.746359e-01	9.439077e-01
6.815204196166550e-04	-8.646882e-02	8.486654e-01
6.825204196166551e-04	-1.557201e-01	8.277028e-01
6.867230948534605e-04	-4.462788e-01	7.297728e-01
6.877230948534605e-04	-5.152294e-01	7.041447e-01
6.919941896796158e-04	-8.084487e-01	5.850862e-01
6.929941896796158e-04	-8.767295e-01	5.550026e-01
6.974348868978708e-04	-1.177730e+00	4.121969e-01
6.984348868978708e-04	-1.244938e+00	3.780148e-01
7.049711900784665e-04	-1.677762e+00	1.388436e-01
7.059711900784665e-04	-1.742855e+00	9.991565e-02
7.180437964396577e-04	-2.498728e+00	-4.055636e-01
7.190437964396578e-04	-2.558487e+00	-4.502575e-01
7.337442254932962e-04	-3.374486e+00	-1.130814e+00
7.347442254932962e-04	-3.425277e+00	-1.178583e+00
7.507442254932961e-04	-4.142295e+00	-1.936437e+00
7.517442254932962e-04	-4.180692e+00	-1.983279e+00
7.677442254932961e-04	-4.681383e+00	-2.695334e+00
7.687442254932962e-04	-4.705266e+00	-2.737396e+00
7.847442254932961e-04	-4.961982e+00	-3.347192e+00
7.857442254932961e-04	-4.970032e+00	-3.381271e+00
8.017442254932961e-04	-4.968600e+00	-3.843236e+00
8.244202254932961e-04	-4.552525e+00	-4.199792e+00
8.254202254932961e-04	-4.523445e+00	-4.206912e+00
8.414202254932961e-04	-3.944381e+00	-4.214766e+00
8.424202254932961e-04	-3.901433e+00	-4.208622e+00
8.584202254932961e-04	-3.118445e+00	-4.005373e+00
8.594202254932961e-04	-3.063999e+00	-3.986128e+00
8.754202254932960e-04	-2.120319e+00	-3.580618e+00
8.764202254932961e-04	-2.057383e+00	-3.549214e+00
8.784202254932961e-04	-1.930337e+00	-3.483139e+00
8.824202254932961e-04	-1.671899e+00	-3.345834e+00
8.834202254932961e-04	-1.606456e+00	-3.309906e+00
8.904202254932961e-04	-1.140431e+00	-3.041492e+00
8.914202254932961e-04	-1.072878e+00	-3.000760e+00
9.044202254932961e-04	-1.807091e-01	-2.423923e+00
9.054202254932961e-04	-1.114671e-01	-2.375970e+00
9.074202254932962e-04	2.706774e-02	-2.277889e+00
9.114202254932962e-04	3.039688e-01	-2.078434e+00
9.124202254932962e-04	3.730814e-01	-2.027552e+00
9.194202254932961e-04	8.541237e-01	-1.661462e+00
9.204202254932962e-04	9.222935e-01	-1.607786e+00
9.334202254932961e-04	1.787682e+00	-8.878816e-01
9.344202254932962e-04	1.852202e+00	-8.308768e-01
9.504202254932961e-04	2.827972e+00	9.155357e-02
9.514202254932961e-04	2.884826e+00	1.497582e-01
9.572274554148176e-04	3.203709e+00	4.865425e-01
9.582274554148176e-04	3.256584e+00	5.442832e-01
9.615029146686347e-04	3.425344e+00	7.323027e-01
9.625029146686347e-04	3.475477e+00	7.892739e-01
9.642127905763125e-04	3.559647e+00	8.856779e-01
9.657728259383616e-04	3.634700e+00	9.715952e-01
9.675112064373780e-04	3.716331e+00	1.062048e+00
9.690997001252117e-04	3.789040e+00	1.134886e+00
9.709691328307496e-04	3.872256e+00	1.200088e+00
9.725764254493938e-04	3.941728e+00	1.235008e+00
9.745009571809826e-04	4.022337e+00	1.254975e+00
9.764616147393567e-04	4.101520e+00	1.262719e+00
9.788214283621840e-04	4.192804e+00	1.267279e+00
9.816610416471564e-04	4.296699e+00	1.270512e+00
9.864409211718793e-04	4.456490e+00	1.275465e+00
9.928368619491598e-04	4.639634e+00	1.280957e+00
1.005628743503721e-03	4.895549e+00	1.288291e+00
1.006628743503721e-03	4.909163e+00	1.288653e+00
1.022628743503721e-03	4.997634e+00	1.291327e+00
1.023628743503721e-03	4.995024e+00	1.291297e+00
1.039628743503721e-03	4.823769e+00	1.287429e+00
1.040628743503720e-03	4.805078e+00	1.286975e+00
1.056628743503720e-03	4.383554e+00	1.275977e+00
1.057628743503720e-03	4.349813e+00	1.275047e+00
1.073628743503720e-03	3.701296e+00	1.255065e+00
1.074628743503720e-03	3.654369e+00	1.253472e+00
1.090628743503720e-03	2.814667e+00	1.219659e+00
1.091628743503720e-03	2.757145e+00	1.216960e+00
1.107628743503720e-03	1.772622e+00	1.154736e+00
1.108628743503720e-03	1.707682e+00	1.149642e+00
1.110628743503720e-03	1.576829e+00	1.138134e+00
1.114628743503720e-03	1.311595e+00	1.112359e+00
1.115628743503720e-03	1.244625e+00	1.105030e+00
1.120109290967419e-03	9.418132e-01	1.066792e+00
1.121109290967419e-03	8.736929e-01	1.056977e+00
1.129070385894818e-03	3.264869e-01	9.557680e-01
1.130070385894818e-03	2.573335e-01	9.399855e-01
1.133786848073000e-03	-3.031047e-11	8.737679e-01
